
T4F48 000:287 SEGGER J-Link V4.92 Log File (0000ms, 0261ms total)
T4F48 000:287 DLL Compiled: Sep 30 2014 09:33:42 (0000ms, 0261ms total)
T4F48 000:287 Logging started @ 2024-10-31 16:50 (0000ms, 0261ms total)
T4F48 000:287 JLINK_SetWarnOutHandler(...) (0000ms, 0261ms total)
T4F48 000:287 JLINK_OpenEx(...)
Firmware: J-Link ARM-OB STM32 compiled Aug 22 2012 19:52:04
Hardware: V7.00
S/N: 20090928
Feature(s): RDI,FlashDL,FlashBP,JFlash,GDB  returns O.K. (0265ms, 0526ms total)
T4F48 000:552 JLINK_SetErrorOutHandler(...) (0000ms, 0526ms total)
T4F48 000:552 JLINK_ExecCommand("ProjectFile = "E:\chungkou\project_1\JLinkSettings.ini"", ...)  returns 0x00 (0000ms, 0526ms total)
T4F48 000:554 JLINK_ExecCommand("Device = STM32F407VE", ...)Device "STM32F407VE" selected (512 KB flash, 128 KB RAM).  returns 0x00 (0018ms, 0544ms total)
T4F48 000:572 JLINK_ExecCommand("DisableConnectionTimeout", ...)  returns 0x01 (0000ms, 0544ms total)
T4F48 000:572 JLINK_GetHardwareVersion()  returns 0x11170 (0000ms, 0544ms total)
T4F48 000:572 JLINK_GetDLLVersion()  returns 49200 (0000ms, 0544ms total)
T4F48 000:572 JLINK_GetFirmwareString(...) (0000ms, 0544ms total)
T4F48 000:588 JLINK_GetDLLVersion()  returns 49200 (0000ms, 0544ms total)
T4F48 000:588 JLINK_GetCompileDateTime() (0000ms, 0544ms total)
T4F48 000:590 JLINK_GetFirmwareString(...) (0000ms, 0544ms total)
T4F48 000:594 JLINK_GetHardwareVersion()  returns 0x11170 (0000ms, 0544ms total)
T4F48 000:604 JLINK_TIF_Select(JLINKARM_TIF_SWD)  returns 0x00 (0000ms, 0544ms total)
T4F48 000:604 JLINK_SetSpeed(5000) (0000ms, 0544ms total)
T4F48 000:604 JLINK_GetId() >0x108 TIF>Found SWD-DP with ID 0x2BA01477 >0x0D TIF> >0x28 TIF> >0x0D TIF> >0x28 TIF> >0x0D TIF> >0x21 TIF> >0x0D TIF> >0x28 TIF> >0x0D TIF> >0x28 TIF> >0x0D TIF> >0x28 TIF> >0x0D TIF> >0x21 TIF> >0x0D TIF> >0x21 TIF> >0x0D TIF> >0x28 TIF> >0x0D TIF> >0x21 TIF> >0x0D TIF> >0x21 TIF> >0x0D TIF> >0x28 TIF> >0x0D TIF> >0x21 TIF> >0x0D TIF> >0x21 TIF> >0x108 TIF>Found SWD-DP with ID 0x2BA01477 >0x0D TIF> >0x21 TIF> >0x0D TIF> >0x28 TIF> >0x0D TIF> >0x28 TIF> >0x0D TIF> >0x21 TIF>
 >0x0D TIF> >0x28 TIF> >0x0D TIF> >0x21 TIF> >0x0D TIF> >0x21 TIF> >0x0D TIF> >0x21 TIF> >0x0D TIF> >0x21 TIF> >0x0D TIF> >0x28 TIF> >0x0D TIF> >0x28 TIF> >0x0D TIF> >0x21 TIF> >0x0D TIF> >0x28 TIF> >0x0D TIF> >0x28 TIF> >0x0D TIF> >0x28 TIF> >0x0D TIF> >0x21 TIF> >0x0D TIF> >0x21 TIF> >0x0D TIF> >0x28 TIF> >0x0D TIF> >0x21 TIF> >0x0D TIF> >0x21 TIF>Found Cortex-M4 r0p1, Little endian. -- CPU_WriteMem(4 bytes @ 0xE0002000) -- CPU_ReadMem(4 bytes @ 0xE000EDF0) -- CPU_ReadMem(4 bytes @ 0xE0002000)
FPUnit: 6 code (BP) slots and 2 literal slots -- CPU_ReadMem(4 bytes @ 0xE000EDFC) -- CPU_ReadMem(4 bytes @ 0xE0001000) -- CPU_WriteMem(4 bytes @ 0xE0001000) -- CPU_ReadMem(4 bytes @ 0xE000ED88) -- CPU_WriteMem(4 bytes @ 0xE000ED88) -- CPU_ReadMem(4 bytes @ 0xE000ED88) -- CPU_WriteMem(4 bytes @ 0xE000ED88) -- CPU_ReadMem(4 bytes @ 0xE00FF010)TPIU fitted. -- CPU_ReadMem(4 bytes @ 0xE00FF014)ETM fitted. -- CPU_ReadMem(4 bytes @ 0xE00FF018) >0x0D TIF> >0x21 TIF>  returns 0x2BA01477 (0034ms, 0578ms total)
T4F48 000:638 JLINK_GetDLLVersion()  returns 49200 (0000ms, 0578ms total)
T4F48 000:638 JLINK_CORE_GetFound()  returns 0xE0000FF (0000ms, 0578ms total)
T4F48 000:642 JLINK_ReadMem (0xE00FF000, 0x0020 Bytes, ...) -- CPU is running -- CPU_ReadMem(32 bytes @ 0xE00FF000) - Data: 03 F0 F0 FF 03 20 F0 FF 03 30 F0 FF 03 10 F0 FF ...  returns 0x00 (0000ms, 0578ms total)
T4F48 000:642 JLINK_ReadMem (0xE000EFF0, 0x0010 Bytes, ...) -- CPU is running -- CPU_ReadMem(16 bytes @ 0xE000EFF0) - Data: 0D 00 00 00 E0 00 00 00 05 00 00 00 B1 00 00 00  returns 0x00 (0001ms, 0579ms total)
T4F48 000:643 JLINK_ReadMem (0xE000EFD0, 0x0020 Bytes, ...) -- CPU is running -- CPU_ReadMem(32 bytes @ 0xE000EFD0) - Data: 04 00 00 00 00 00 00 00 00 00 00 00 00 00 00 00 ...  returns 0x00 (0000ms, 0579ms total)
T4F48 000:643 JLINK_ReadMem (0xE0001FF0, 0x0010 Bytes, ...) -- CPU is running -- CPU_ReadMem(16 bytes @ 0xE0001FF0) - Data: 0D 00 00 00 E0 00 00 00 05 00 00 00 B1 00 00 00  returns 0x00 (0001ms, 0580ms total)
T4F48 000:644 JLINK_ReadMem (0xE0001FD0, 0x0020 Bytes, ...) -- CPU is running -- CPU_ReadMem(32 bytes @ 0xE0001FD0) - Data: 04 00 00 00 00 00 00 00 00 00 00 00 00 00 00 00 ...  returns 0x00 (0001ms, 0581ms total)
T4F48 000:645 JLINK_ReadMem (0xE0002FF0, 0x0010 Bytes, ...) -- CPU is running -- CPU_ReadMem(16 bytes @ 0xE0002FF0) - Data: 0D 00 00 00 E0 00 00 00 05 00 00 00 B1 00 00 00  returns 0x00 (0000ms, 0581ms total)
T4F48 000:645 JLINK_ReadMem (0xE0002FD0, 0x0020 Bytes, ...) -- CPU is running -- CPU_ReadMem(32 bytes @ 0xE0002FD0) - Data: 04 00 00 00 00 00 00 00 00 00 00 00 00 00 00 00 ...  returns 0x00 (0001ms, 0582ms total)
T4F48 000:646 JLINK_ReadMem (0xE0000FF0, 0x0010 Bytes, ...) -- CPU is running -- CPU_ReadMem(16 bytes @ 0xE0000FF0) - Data: 0D 00 00 00 E0 00 00 00 05 00 00 00 B1 00 00 00  returns 0x00 (0000ms, 0582ms total)
T4F48 000:646 JLINK_ReadMem (0xE0000FD0, 0x0020 Bytes, ...) -- CPU is running -- CPU_ReadMem(32 bytes @ 0xE0000FD0) - Data: 04 00 00 00 00 00 00 00 00 00 00 00 00 00 00 00 ...  returns 0x00 (0001ms, 0583ms total)
T4F48 000:647 JLINK_ReadMem (0xE0040FF0, 0x0010 Bytes, ...) -- CPU is running -- CPU_ReadMem(16 bytes @ 0xE0040FF0) - Data: 0D 00 00 00 90 00 00 00 05 00 00 00 B1 00 00 00  returns 0x00 (0001ms, 0584ms total)
T4F48 000:648 JLINK_ReadMem (0xE0040FD0, 0x0020 Bytes, ...) -- CPU is running -- CPU_ReadMem(32 bytes @ 0xE0040FD0) - Data: 04 00 00 00 00 00 00 00 00 00 00 00 00 00 00 00 ...  returns 0x00 (0001ms, 0585ms total)
T4F48 000:649 JLINK_ReadMem (0xE0041FF0, 0x0010 Bytes, ...) -- CPU is running -- CPU_ReadMem(16 bytes @ 0xE0041FF0) - Data: 0D 00 00 00 90 00 00 00 05 00 00 00 B1 00 00 00  returns 0x00 (0000ms, 0585ms total)
T4F48 000:649 JLINK_ReadMem (0xE0041FD0, 0x0020 Bytes, ...) -- CPU is running -- CPU_ReadMem(32 bytes @ 0xE0041FD0) - Data: 04 00 00 00 00 00 00 00 00 00 00 00 00 00 00 00 ...  returns 0x00 (0001ms, 0586ms total)
T4F48 000:650 JLINK_ReadMemU32(0xE000EF40, 0x0001 Items, ...) -- CPU is running -- CPU_ReadMem(4 bytes @ 0xE000EF40) - Data: 21 00 11 10  returns 0x01 (0000ms, 0586ms total)
T4F48 000:650 JLINK_ReadMemU32(0xE000EF44, 0x0001 Items, ...) -- CPU is running -- CPU_ReadMem(4 bytes @ 0xE000EF44) - Data: 11 00 00 11  returns 0x01 (0001ms, 0587ms total)
T4F48 000:651 JLINK_ReadMemU32(0xE000ED00, 0x0001 Items, ...) -- CPU is running -- CPU_ReadMem(4 bytes @ 0xE000ED00) - Data: 41 C2 0F 41  returns 0x01 (0000ms, 0587ms total)
T4F48 000:651 JLINK_SetResetType(JLINKARM_RESET_TYPE_NORMAL)  returns JLINKARM_RESET_TYPE_NORMAL (0000ms, 0587ms total)
T4F48 000:651 JLINK_Reset() -- CPU is running -- CPU_WriteMem(4 bytes @ 0xE000EDF0) -- CPU is running -- CPU_WriteMem(4 bytes @ 0xE000EDFC) >0x35 TIF> -- CPU is running -- CPU_WriteMem(4 bytes @ 0xE000ED0C) -- CPU is running -- CPU_ReadMem(4 bytes @ 0xE000EDF0) -- CPU is running -- CPU_ReadMem(4 bytes @ 0xE000EDF0) -- CPU is running -- CPU_WriteMem(4 bytes @ 0xE000EDF0) -- CPU is running -- CPU_WriteMem(4 bytes @ 0xE000EDFC) -- CPU is running -- CPU_ReadMem(4 bytes @ 0xE000EDF0)
 -- CPU_WriteMem(4 bytes @ 0xE0002000) -- CPU_ReadMem(4 bytes @ 0xE000EDFC) -- CPU_ReadMem(4 bytes @ 0xE0001000) (0017ms, 0604ms total)
T4F48 000:668 JLINK_Halt()  returns 0x00 (0000ms, 0604ms total)
T4F48 000:668 JLINK_IsHalted()  returns TRUE (0000ms, 0604ms total)
T4F48 000:668 JLINK_ReadMemU32(0xE000EDF0, 0x0001 Items, ...) -- CPU_ReadMem(4 bytes @ 0xE000EDF0) - Data: 03 00 03 00  returns 0x01 (0000ms, 0604ms total)
T4F48 000:668 JLINK_WriteU32(0xE000EDF0, 0xA05F0003) -- CPU_WriteMem(4 bytes @ 0xE000EDF0)  returns 0x00 (0001ms, 0605ms total)
T4F48 000:669 JLINK_WriteU32(0xE000EDFC, 0x01000000) -- CPU_WriteMem(4 bytes @ 0xE000EDFC)  returns 0x00 (0000ms, 0605ms total)
T4F48 000:688 JLINK_GetHWStatus(...)  returns 0x00 (0001ms, 0606ms total)
T4F48 000:696 JLINK_GetNumBPUnits(Type = 0xFFFFFF00)  returns 0x06 (0000ms, 0606ms total)
T4F48 000:696 JLINK_GetNumBPUnits(Type = 0xF0)  returns 0x2000 (0000ms, 0606ms total)
T4F48 000:696 JLINK_GetNumWPUnits()  returns 0x04 (0000ms, 0606ms total)
T4F48 000:703 JLINK_GetSpeed()  returns 0xFA0 (0000ms, 0606ms total)
T4F48 000:707 JLINK_ReadMemU32(0xE000E004, 0x0001 Items, ...) -- CPU_ReadMem(4 bytes @ 0xE000E004) - Data: 02 00 00 00  returns 0x01 (0001ms, 0607ms total)
T4F48 000:708 JLINK_ReadMemU32(0xE000E004, 0x0001 Items, ...) -- CPU_ReadMem(4 bytes @ 0xE000E004) - Data: 02 00 00 00  returns 0x01 (0000ms, 0607ms total)
T4F48 000:708 JLINK_WriteMem(0xE0001000, 0x001C Bytes, ...) - Data: 01 00 00 00 00 00 00 00 00 00 00 00 00 00 00 00 ... -- CPU_WriteMem(28 bytes @ 0xE0001000)  returns 0x1C (0001ms, 0608ms total)
T4F48 000:709 JLINK_ReadMem (0xE0001000, 0x001C Bytes, ...) -- CPU_ReadMem(28 bytes @ 0xE0001000) - Data: 01 00 00 40 00 00 00 00 00 00 00 00 00 00 00 00 ...  returns 0x00 (0001ms, 0609ms total)
T4F48 000:710 JLINK_Halt()  returns 0x00 (0000ms, 0609ms total)
T4F48 000:710 JLINK_IsHalted()  returns TRUE (0000ms, 0609ms total)
T4F48 000:712 JLINK_WriteMem(0x20000000, 0x0180 Bytes, ...) - Data: 00 BE 0A E0 0D 78 2D 06 68 40 08 24 40 00 00 D3 ... -- CPU_WriteMem(384 bytes @ 0x20000000)  returns 0x180 (0005ms, 0614ms total)
T4F48 000:717 JLINK_WriteReg(R0, 0x08000000)  returns 0x00 (0000ms, 0614ms total)
T4F48 000:717 JLINK_WriteReg(R1, 0x00B71B00)  returns 0x00 (0000ms, 0614ms total)
T4F48 000:717 JLINK_WriteReg(R2, 0x00000001)  returns 0x00 (0000ms, 0614ms total)
T4F48 000:717 JLINK_WriteReg(R3, 0x00000000)  returns 0x00 (0000ms, 0614ms total)
T4F48 000:717 JLINK_WriteReg(R4, 0x00000000)  returns 0x00 (0000ms, 0614ms total)
T4F48 000:717 JLINK_WriteReg(R5, 0x00000000)  returns 0x00 (0000ms, 0614ms total)
T4F48 000:717 JLINK_WriteReg(R6, 0x00000000)  returns 0x00 (0000ms, 0614ms total)
T4F48 000:717 JLINK_WriteReg(R7, 0x00000000)  returns 0x00 (0000ms, 0614ms total)
T4F48 000:717 JLINK_WriteReg(R8, 0x00000000)  returns 0x00 (0000ms, 0614ms total)
T4F48 000:717 JLINK_WriteReg(R9, 0x2000017C)  returns 0x00 (0000ms, 0614ms total)
T4F48 000:717 JLINK_WriteReg(R10, 0x00000000)  returns 0x00 (0000ms, 0614ms total)
T4F48 000:717 JLINK_WriteReg(R11, 0x00000000)  returns 0x00 (0000ms, 0614ms total)
T4F48 000:717 JLINK_WriteReg(R12, 0x00000000)  returns 0x00 (0000ms, 0614ms total)
T4F48 000:717 JLINK_WriteReg(R13 (SP), 0x20001000)  returns 0x00 (0000ms, 0614ms total)
T4F48 000:717 JLINK_WriteReg(R14, 0x20000001)  returns 0x00 (0000ms, 0614ms total)
T4F48 000:717 JLINK_WriteReg(R15 (PC), 0x20000054)  returns 0x00 (0000ms, 0614ms total)
T4F48 000:717 JLINK_WriteReg(XPSR, 0x01000000)  returns 0x00 (0000ms, 0614ms total)
T4F48 000:717 JLINK_WriteReg(MSP, 0x20001000)  returns 0x00 (0000ms, 0614ms total)
T4F48 000:717 JLINK_WriteReg(PSP, 0x20001000)  returns 0x00 (0000ms, 0614ms total)
T4F48 000:717 JLINK_WriteReg(CFBP, 0x00000000)  returns 0x00 (0000ms, 0614ms total)
T4F48 000:717 JLINK_SetBPEx(Addr = 0x20000000, Type = 0xFFFFFFF2) -- CPU_ReadMem(2 bytes @ 0x20000000)  returns 0x00000001 (0001ms, 0615ms total)
T4F48 000:718 JLINK_Go() -- CPU_WriteMem(2 bytes @ 0x20000000) -- CPU_WriteMem(4 bytes @ 0xE0002008) -- CPU_WriteMem(4 bytes @ 0xE000200C) -- CPU_WriteMem(4 bytes @ 0xE0002010) -- CPU_WriteMem(4 bytes @ 0xE0002014) -- CPU_WriteMem(4 bytes @ 0xE0002018) -- CPU_WriteMem(4 bytes @ 0xE000201C) -- CPU_WriteMem(4 bytes @ 0xE0001004) (0005ms, 0620ms total)
T4F48 000:723 JLINK_IsHalted() -- CPU_ReadMem(2 bytes @ 0x20000000)  returns TRUE (0003ms, 0623ms total)
T4F48 000:726 JLINK_ReadReg(R15 (PC))  returns 0x20000000 (0000ms, 0620ms total)
T4F48 000:726 JLINK_ClrBPEx(BPHandle = 0x00000001)  returns 0x00 (0000ms, 0620ms total)
T4F48 000:726 JLINK_ReadReg(R0)  returns 0x00000000 (0000ms, 0620ms total)
T4F48 000:726 JLINK_WriteReg(R0, 0x08000000)  returns 0x00 (0000ms, 0620ms total)
T4F48 000:726 JLINK_WriteReg(R1, 0x00004000)  returns 0x00 (0000ms, 0620ms total)
T4F48 000:726 JLINK_WriteReg(R2, 0x000000FF)  returns 0x00 (0000ms, 0620ms total)
T4F48 000:726 JLINK_WriteReg(R3, 0x00000000)  returns 0x00 (0000ms, 0620ms total)
T4F48 000:726 JLINK_WriteReg(R4, 0x00000000)  returns 0x00 (0000ms, 0620ms total)
T4F48 000:726 JLINK_WriteReg(R5, 0x00000000)  returns 0x00 (0001ms, 0621ms total)
T4F48 000:727 JLINK_WriteReg(R6, 0x00000000)  returns 0x00 (0000ms, 0621ms total)
T4F48 000:727 JLINK_WriteReg(R7, 0x00000000)  returns 0x00 (0000ms, 0621ms total)
T4F48 000:727 JLINK_WriteReg(R8, 0x00000000)  returns 0x00 (0000ms, 0621ms total)
T4F48 000:727 JLINK_WriteReg(R9, 0x2000017C)  returns 0x00 (0000ms, 0621ms total)
T4F48 000:727 JLINK_WriteReg(R10, 0x00000000)  returns 0x00 (0000ms, 0621ms total)
T4F48 000:727 JLINK_WriteReg(R11, 0x00000000)  returns 0x00 (0000ms, 0621ms total)
T4F48 000:727 JLINK_WriteReg(R12, 0x00000000)  returns 0x00 (0000ms, 0621ms total)
T4F48 000:727 JLINK_WriteReg(R13 (SP), 0x20001000)  returns 0x00 (0000ms, 0621ms total)
T4F48 000:727 JLINK_WriteReg(R14, 0x20000001)  returns 0x00 (0000ms, 0621ms total)
T4F48 000:727 JLINK_WriteReg(R15 (PC), 0x20000020)  returns 0x00 (0000ms, 0621ms total)
T4F48 000:727 JLINK_WriteReg(XPSR, 0x01000000)  returns 0x00 (0000ms, 0621ms total)
T4F48 000:727 JLINK_WriteReg(MSP, 0x20001000)  returns 0x00 (0000ms, 0621ms total)
T4F48 000:727 JLINK_WriteReg(PSP, 0x20001000)  returns 0x00 (0000ms, 0621ms total)
T4F48 000:727 JLINK_WriteReg(CFBP, 0x00000000)  returns 0x00 (0000ms, 0621ms total)
T4F48 000:727 JLINK_SetBPEx(Addr = 0x20000000, Type = 0xFFFFFFF2)  returns 0x00000002 (0000ms, 0621ms total)
T4F48 000:727 JLINK_Go() (0001ms, 0622ms total)
T4F48 000:728 JLINK_IsHalted() -- CPU_ReadMem(2 bytes @ 0x20000000)  returns TRUE (0004ms, 0626ms total)
T4F48 000:732 JLINK_ReadReg(R15 (PC))  returns 0x20000000 (0000ms, 0622ms total)
T4F48 000:732 JLINK_ClrBPEx(BPHandle = 0x00000002)  returns 0x00 (0000ms, 0622ms total)
T4F48 000:732 JLINK_ReadReg(R0)  returns 0x00000001 (0000ms, 0622ms total)
T4F48 000:732 JLINK_WriteReg(R0, 0x08000000)  returns 0x00 (0000ms, 0622ms total)
T4F48 000:732 JLINK_WriteReg(R1, 0x00004000)  returns 0x00 (0000ms, 0622ms total)
T4F48 000:732 JLINK_WriteReg(R2, 0x000000FF)  returns 0x00 (0000ms, 0622ms total)
T4F48 000:732 JLINK_WriteReg(R3, 0x00000000)  returns 0x00 (0000ms, 0622ms total)
T4F48 000:732 JLINK_WriteReg(R4, 0x00000000)  returns 0x00 (0000ms, 0622ms total)
T4F48 000:732 JLINK_WriteReg(R5, 0x00000000)  returns 0x00 (0000ms, 0622ms total)
T4F48 000:732 JLINK_WriteReg(R6, 0x00000000)  returns 0x00 (0000ms, 0622ms total)
T4F48 000:732 JLINK_WriteReg(R7, 0x00000000)  returns 0x00 (0000ms, 0622ms total)
T4F48 000:732 JLINK_WriteReg(R8, 0x00000000)  returns 0x00 (0000ms, 0622ms total)
T4F48 000:732 JLINK_WriteReg(R9, 0x2000017C)  returns 0x00 (0000ms, 0622ms total)
T4F48 000:732 JLINK_WriteReg(R10, 0x00000000)  returns 0x00 (0000ms, 0622ms total)
T4F48 000:732 JLINK_WriteReg(R11, 0x00000000)  returns 0x00 (0000ms, 0622ms total)
T4F48 000:732 JLINK_WriteReg(R12, 0x00000000)  returns 0x00 (0000ms, 0622ms total)
T4F48 000:732 JLINK_WriteReg(R13 (SP), 0x20001000)  returns 0x00 (0000ms, 0622ms total)
T4F48 000:732 JLINK_WriteReg(R14, 0x20000001)  returns 0x00 (0000ms, 0622ms total)
T4F48 000:732 JLINK_WriteReg(R15 (PC), 0x200000BC)  returns 0x00 (0000ms, 0622ms total)
T4F48 000:732 JLINK_WriteReg(XPSR, 0x01000000)  returns 0x00 (0000ms, 0622ms total)
T4F48 000:732 JLINK_WriteReg(MSP, 0x20001000)  returns 0x00 (0000ms, 0622ms total)
T4F48 000:732 JLINK_WriteReg(PSP, 0x20001000)  returns 0x00 (0000ms, 0622ms total)
T4F48 000:732 JLINK_WriteReg(CFBP, 0x00000000)  returns 0x00 (0000ms, 0622ms total)
T4F48 000:732 JLINK_SetBPEx(Addr = 0x20000000, Type = 0xFFFFFFF2)  returns 0x00000003 (0000ms, 0622ms total)
T4F48 000:732 JLINK_Go() (0002ms, 0624ms total)
T4F48 000:734 JLINK_IsHalted()  returns FALSE (0000ms, 0624ms total)
T4F48 000:815 JLINK_IsHalted()  returns FALSE (0000ms, 0624ms total)
T4F48 000:848 JLINK_IsHalted()  returns FALSE (0000ms, 0624ms total)
T4F48 000:850 JLINK_IsHalted()  returns FALSE (0000ms, 0624ms total)
T4F48 000:851 JLINK_IsHalted()  returns FALSE (0000ms, 0624ms total)
T4F48 000:853 JLINK_IsHalted()  returns FALSE (0001ms, 0625ms total)
T4F48 000:856 JLINK_IsHalted()  returns FALSE (0000ms, 0624ms total)
T4F48 000:858 JLINK_IsHalted()  returns FALSE (0000ms, 0624ms total)
T4F48 000:862 JLINK_IsHalted()  returns FALSE (0000ms, 0624ms total)
T4F48 000:864 JLINK_IsHalted()  returns FALSE (0000ms, 0624ms total)
T4F48 000:866 JLINK_IsHalted()  returns FALSE (0000ms, 0624ms total)
T4F48 000:868 JLINK_IsHalted()  returns FALSE (0000ms, 0624ms total)
T4F48 000:870 JLINK_IsHalted()  returns FALSE (0000ms, 0624ms total)
T4F48 000:872 JLINK_IsHalted()  returns FALSE (0000ms, 0624ms total)
T4F48 000:874 JLINK_IsHalted()  returns FALSE (0000ms, 0624ms total)
T4F48 000:876 JLINK_IsHalted()  returns FALSE (0000ms, 0624ms total)
T4F48 000:878 JLINK_IsHalted()  returns FALSE (0000ms, 0624ms total)
T4F48 000:880 JLINK_IsHalted()  returns FALSE (0000ms, 0624ms total)
T4F48 000:882 JLINK_IsHalted()  returns FALSE (0000ms, 0624ms total)
T4F48 000:884 JLINK_IsHalted()  returns FALSE (0000ms, 0624ms total)
T4F48 000:886 JLINK_IsHalted()  returns FALSE (0000ms, 0624ms total)
T4F48 000:887 JLINK_IsHalted()  returns FALSE (0000ms, 0624ms total)
T4F48 000:889 JLINK_IsHalted()  returns FALSE (0000ms, 0624ms total)
T4F48 000:891 JLINK_IsHalted()  returns FALSE (0000ms, 0624ms total)
T4F48 000:893 JLINK_IsHalted()  returns FALSE (0000ms, 0624ms total)
T4F48 000:895 JLINK_IsHalted()  returns FALSE (0000ms, 0624ms total)
T4F48 000:896 JLINK_IsHalted()  returns FALSE (0001ms, 0625ms total)
T4F48 000:898 JLINK_IsHalted()  returns FALSE (0001ms, 0625ms total)
T4F48 000:900 JLINK_IsHalted()  returns FALSE (0000ms, 0624ms total)
T4F48 000:903 JLINK_IsHalted()  returns FALSE (0000ms, 0624ms total)
T4F48 000:904 JLINK_IsHalted()  returns FALSE (0000ms, 0624ms total)
T4F48 000:906 JLINK_IsHalted()  returns FALSE (0001ms, 0625ms total)
T4F48 000:957 JLINK_IsHalted()  returns FALSE (0000ms, 0624ms total)
T4F48 000:959 JLINK_IsHalted()  returns FALSE (0000ms, 0624ms total)
T4F48 000:961 JLINK_IsHalted()  returns FALSE (0000ms, 0624ms total)
T4F48 000:963 JLINK_IsHalted()  returns FALSE (0000ms, 0624ms total)
T4F48 000:965 JLINK_IsHalted()  returns FALSE (0001ms, 0625ms total)
T4F48 000:967 JLINK_IsHalted()  returns FALSE (0000ms, 0624ms total)
T4F48 000:969 JLINK_IsHalted()  returns FALSE (0000ms, 0624ms total)
T4F48 000:971 JLINK_IsHalted()  returns FALSE (0000ms, 0624ms total)
T4F48 000:973 JLINK_IsHalted()  returns FALSE (0000ms, 0624ms total)
T4F48 000:975 JLINK_IsHalted()  returns FALSE (0000ms, 0624ms total)
T4F48 000:977 JLINK_IsHalted()  returns FALSE (0000ms, 0624ms total)
T4F48 000:979 JLINK_IsHalted()  returns FALSE (0000ms, 0624ms total)
T4F48 000:981 JLINK_IsHalted()  returns FALSE (0000ms, 0624ms total)
T4F48 000:983 JLINK_IsHalted()  returns FALSE (0000ms, 0624ms total)
T4F48 000:985 JLINK_IsHalted()  returns FALSE (0000ms, 0624ms total)
T4F48 000:987 JLINK_IsHalted()  returns FALSE (0000ms, 0624ms total)
T4F48 000:989 JLINK_IsHalted()  returns FALSE (0000ms, 0624ms total)
T4F48 000:991 JLINK_IsHalted()  returns FALSE (0000ms, 0624ms total)
T4F48 000:993 JLINK_IsHalted()  returns FALSE (0000ms, 0624ms total)
T4F48 000:995 JLINK_IsHalted()  returns FALSE (0000ms, 0624ms total)
T4F48 000:997 JLINK_IsHalted()  returns FALSE (0000ms, 0624ms total)
T4F48 000:999 JLINK_IsHalted()  returns FALSE (0000ms, 0624ms total)
T4F48 001:001 JLINK_IsHalted()  returns FALSE (0000ms, 0624ms total)
T4F48 001:003 JLINK_IsHalted()  returns FALSE (0000ms, 0624ms total)
T4F48 001:005 JLINK_IsHalted()  returns FALSE (0000ms, 0624ms total)
T4F48 001:007 JLINK_IsHalted()  returns FALSE (0000ms, 0624ms total)
T4F48 001:009 JLINK_IsHalted()  returns FALSE (0000ms, 0624ms total)
T4F48 001:011 JLINK_IsHalted()  returns FALSE (0000ms, 0624ms total)
T4F48 001:013 JLINK_IsHalted()  returns FALSE (0000ms, 0624ms total)
T4F48 001:056 JLINK_IsHalted()  returns FALSE (0000ms, 0624ms total)
T4F48 001:058 JLINK_IsHalted()  returns FALSE (0000ms, 0624ms total)
T4F48 001:060 JLINK_IsHalted()  returns FALSE (0000ms, 0624ms total)
T4F48 001:062 JLINK_IsHalted()  returns FALSE (0000ms, 0624ms total)
T4F48 001:064 JLINK_IsHalted()  returns FALSE (0000ms, 0624ms total)
T4F48 001:066 JLINK_IsHalted()  returns FALSE (0000ms, 0624ms total)
T4F48 001:068 JLINK_IsHalted()  returns FALSE (0000ms, 0624ms total)
T4F48 001:070 JLINK_IsHalted()  returns FALSE (0000ms, 0624ms total)
T4F48 001:072 JLINK_IsHalted()  returns FALSE (0000ms, 0624ms total)
T4F48 001:074 JLINK_IsHalted()  returns FALSE (0000ms, 0624ms total)
T4F48 001:076 JLINK_IsHalted()  returns FALSE (0000ms, 0624ms total)
T4F48 001:077 JLINK_IsHalted()  returns FALSE (0000ms, 0624ms total)
T4F48 001:079 JLINK_IsHalted()  returns FALSE (0000ms, 0624ms total)
T4F48 001:081 JLINK_IsHalted()  returns FALSE (0000ms, 0624ms total)
T4F48 001:083 JLINK_IsHalted()  returns FALSE (0000ms, 0624ms total)
T4F48 001:085 JLINK_IsHalted()  returns FALSE (0000ms, 0624ms total)
T4F48 001:087 JLINK_IsHalted()  returns FALSE (0000ms, 0624ms total)
T4F48 001:089 JLINK_IsHalted()  returns FALSE (0000ms, 0624ms total)
T4F48 001:091 JLINK_IsHalted()  returns FALSE (0001ms, 0625ms total)
T4F48 001:093 JLINK_IsHalted()  returns FALSE (0000ms, 0624ms total)
T4F48 001:095 JLINK_IsHalted()  returns FALSE (0000ms, 0624ms total)
T4F48 001:097 JLINK_IsHalted()  returns FALSE (0000ms, 0624ms total)
T4F48 001:099 JLINK_IsHalted()  returns FALSE (0000ms, 0624ms total)
T4F48 001:100 JLINK_IsHalted()  returns FALSE (0000ms, 0624ms total)
T4F48 001:102 JLINK_IsHalted()  returns FALSE (0001ms, 0625ms total)
T4F48 001:104 JLINK_IsHalted()  returns FALSE (0000ms, 0624ms total)
T4F48 001:106 JLINK_IsHalted()  returns FALSE (0001ms, 0625ms total)
T4F48 001:110 JLINK_IsHalted()  returns FALSE (0001ms, 0625ms total)
T4F48 001:113 JLINK_IsHalted()  returns FALSE (0000ms, 0624ms total)
T4F48 001:115 JLINK_IsHalted()  returns FALSE (0000ms, 0624ms total)
T4F48 001:117 JLINK_IsHalted()  returns FALSE (0000ms, 0624ms total)
T4F48 001:119 JLINK_IsHalted()  returns FALSE (0000ms, 0624ms total)
T4F48 001:121 JLINK_IsHalted()  returns FALSE (0000ms, 0624ms total)
T4F48 001:122 JLINK_IsHalted()  returns FALSE (0001ms, 0625ms total)
T4F48 001:163 JLINK_IsHalted() -- CPU_ReadMem(2 bytes @ 0x20000000)  returns TRUE (0003ms, 0627ms total)
T4F48 001:166 JLINK_ReadReg(R15 (PC))  returns 0x20000000 (0000ms, 0624ms total)
T4F48 001:166 JLINK_ClrBPEx(BPHandle = 0x00000003)  returns 0x00 (0000ms, 0624ms total)
T4F48 001:166 JLINK_ReadReg(R0)  returns 0x00000000 (0000ms, 0624ms total)
T4F48 001:166 JLINK_WriteReg(R0, 0x00000001)  returns 0x00 (0000ms, 0624ms total)
T4F48 001:166 JLINK_WriteReg(R1, 0x00004000)  returns 0x00 (0001ms, 0625ms total)
T4F48 001:167 JLINK_WriteReg(R2, 0x000000FF)  returns 0x00 (0000ms, 0625ms total)
T4F48 001:167 JLINK_WriteReg(R3, 0x00000000)  returns 0x00 (0000ms, 0625ms total)
T4F48 001:167 JLINK_WriteReg(R4, 0x00000000)  returns 0x00 (0000ms, 0625ms total)
T4F48 001:167 JLINK_WriteReg(R5, 0x00000000)  returns 0x00 (0000ms, 0625ms total)
T4F48 001:167 JLINK_WriteReg(R6, 0x00000000)  returns 0x00 (0000ms, 0625ms total)
T4F48 001:167 JLINK_WriteReg(R7, 0x00000000)  returns 0x00 (0000ms, 0625ms total)
T4F48 001:167 JLINK_WriteReg(R8, 0x00000000)  returns 0x00 (0000ms, 0625ms total)
T4F48 001:167 JLINK_WriteReg(R9, 0x2000017C)  returns 0x00 (0000ms, 0625ms total)
T4F48 001:167 JLINK_WriteReg(R10, 0x00000000)  returns 0x00 (0000ms, 0625ms total)
T4F48 001:167 JLINK_WriteReg(R11, 0x00000000)  returns 0x00 (0000ms, 0625ms total)
T4F48 001:167 JLINK_WriteReg(R12, 0x00000000)  returns 0x00 (0000ms, 0625ms total)
T4F48 001:167 JLINK_WriteReg(R13 (SP), 0x20001000)  returns 0x00 (0000ms, 0625ms total)
T4F48 001:167 JLINK_WriteReg(R14, 0x20000001)  returns 0x00 (0000ms, 0625ms total)
T4F48 001:167 JLINK_WriteReg(R15 (PC), 0x20000082)  returns 0x00 (0000ms, 0625ms total)
T4F48 001:167 JLINK_WriteReg(XPSR, 0x01000000)  returns 0x00 (0000ms, 0625ms total)
T4F48 001:167 JLINK_WriteReg(MSP, 0x20001000)  returns 0x00 (0000ms, 0625ms total)
T4F48 001:167 JLINK_WriteReg(PSP, 0x20001000)  returns 0x00 (0000ms, 0625ms total)
T4F48 001:167 JLINK_WriteReg(CFBP, 0x00000000)  returns 0x00 (0000ms, 0625ms total)
T4F48 001:167 JLINK_SetBPEx(Addr = 0x20000000, Type = 0xFFFFFFF2)  returns 0x00000004 (0000ms, 0625ms total)
T4F48 001:167 JLINK_Go() (0001ms, 0626ms total)
T4F48 001:168 JLINK_IsHalted() -- CPU_ReadMem(2 bytes @ 0x20000000)  returns TRUE (0004ms, 0630ms total)
T4F48 001:172 JLINK_ReadReg(R15 (PC))  returns 0x20000000 (0000ms, 0626ms total)
T4F48 001:172 JLINK_ClrBPEx(BPHandle = 0x00000004)  returns 0x00 (0000ms, 0626ms total)
T4F48 001:172 JLINK_ReadReg(R0)  returns 0x00000000 (0000ms, 0626ms total)
T4F48 001:228 JLINK_WriteMem(0x20000000, 0x0180 Bytes, ...) - Data: 00 BE 0A E0 0D 78 2D 06 68 40 08 24 40 00 00 D3 ... -- CPU_WriteMem(384 bytes @ 0x20000000)  returns 0x180 (0005ms, 0631ms total)
T4F48 001:233 JLINK_WriteReg(R0, 0x08000000)  returns 0x00 (0000ms, 0631ms total)
T4F48 001:233 JLINK_WriteReg(R1, 0x00B71B00)  returns 0x00 (0000ms, 0631ms total)
T4F48 001:233 JLINK_WriteReg(R2, 0x00000002)  returns 0x00 (0000ms, 0631ms total)
T4F48 001:233 JLINK_WriteReg(R3, 0x00000000)  returns 0x00 (0000ms, 0631ms total)
T4F48 001:233 JLINK_WriteReg(R4, 0x00000000)  returns 0x00 (0000ms, 0631ms total)
T4F48 001:233 JLINK_WriteReg(R5, 0x00000000)  returns 0x00 (0000ms, 0631ms total)
T4F48 001:233 JLINK_WriteReg(R6, 0x00000000)  returns 0x00 (0000ms, 0631ms total)
T4F48 001:233 JLINK_WriteReg(R7, 0x00000000)  returns 0x00 (0000ms, 0631ms total)
T4F48 001:233 JLINK_WriteReg(R8, 0x00000000)  returns 0x00 (0000ms, 0631ms total)
T4F48 001:233 JLINK_WriteReg(R9, 0x2000017C)  returns 0x00 (0000ms, 0631ms total)
T4F48 001:233 JLINK_WriteReg(R10, 0x00000000)  returns 0x00 (0000ms, 0631ms total)
T4F48 001:233 JLINK_WriteReg(R11, 0x00000000)  returns 0x00 (0000ms, 0631ms total)
T4F48 001:233 JLINK_WriteReg(R12, 0x00000000)  returns 0x00 (0000ms, 0631ms total)
T4F48 001:233 JLINK_WriteReg(R13 (SP), 0x20001000)  returns 0x00 (0000ms, 0631ms total)
T4F48 001:233 JLINK_WriteReg(R14, 0x20000001)  returns 0x00 (0000ms, 0631ms total)
T4F48 001:233 JLINK_WriteReg(R15 (PC), 0x20000054)  returns 0x00 (0000ms, 0631ms total)
T4F48 001:233 JLINK_WriteReg(XPSR, 0x01000000)  returns 0x00 (0000ms, 0631ms total)
T4F48 001:233 JLINK_WriteReg(MSP, 0x20001000)  returns 0x00 (0000ms, 0631ms total)
T4F48 001:233 JLINK_WriteReg(PSP, 0x20001000)  returns 0x00 (0000ms, 0631ms total)
T4F48 001:233 JLINK_WriteReg(CFBP, 0x00000000)  returns 0x00 (0000ms, 0631ms total)
T4F48 001:233 JLINK_SetBPEx(Addr = 0x20000000, Type = 0xFFFFFFF2) -- CPU_ReadMem(2 bytes @ 0x20000000)  returns 0x00000005 (0001ms, 0632ms total)
T4F48 001:234 JLINK_Go() -- CPU_WriteMem(2 bytes @ 0x20000000) (0001ms, 0633ms total)
T4F48 001:235 JLINK_IsHalted() -- CPU_ReadMem(2 bytes @ 0x20000000)  returns TRUE (0004ms, 0637ms total)
T4F48 001:239 JLINK_ReadReg(R15 (PC))  returns 0x20000000 (0000ms, 0633ms total)
T4F48 001:239 JLINK_ClrBPEx(BPHandle = 0x00000005)  returns 0x00 (0000ms, 0633ms total)
T4F48 001:239 JLINK_ReadReg(R0)  returns 0x00000000 (0000ms, 0633ms total)
T4F48 001:239 JLINK_WriteMem(0x20000180, 0x0400 Bytes, ...) - Data: 68 11 00 20 9D 01 00 08 65 0A 00 08 49 08 00 08 ... -- CPU_WriteMem(1024 bytes @ 0x20000180)  returns 0x400 (0013ms, 0646ms total)
T4F48 001:252 JLINK_WriteReg(R0, 0x08000000)  returns 0x00 (0000ms, 0646ms total)
T4F48 001:252 JLINK_WriteReg(R1, 0x00000400)  returns 0x00 (0000ms, 0646ms total)
T4F48 001:252 JLINK_WriteReg(R2, 0x20000180)  returns 0x00 (0000ms, 0646ms total)
T4F48 001:252 JLINK_WriteReg(R3, 0x00000000)  returns 0x00 (0000ms, 0646ms total)
T4F48 001:252 JLINK_WriteReg(R4, 0x00000000)  returns 0x00 (0000ms, 0646ms total)
T4F48 001:252 JLINK_WriteReg(R5, 0x00000000)  returns 0x00 (0000ms, 0646ms total)
T4F48 001:252 JLINK_WriteReg(R6, 0x00000000)  returns 0x00 (0000ms, 0646ms total)
T4F48 001:252 JLINK_WriteReg(R7, 0x00000000)  returns 0x00 (0000ms, 0646ms total)
T4F48 001:252 JLINK_WriteReg(R8, 0x00000000)  returns 0x00 (0000ms, 0646ms total)
T4F48 001:252 JLINK_WriteReg(R9, 0x2000017C)  returns 0x00 (0000ms, 0646ms total)
T4F48 001:252 JLINK_WriteReg(R10, 0x00000000)  returns 0x00 (0000ms, 0646ms total)
T4F48 001:252 JLINK_WriteReg(R11, 0x00000000)  returns 0x00 (0000ms, 0646ms total)
T4F48 001:252 JLINK_WriteReg(R12, 0x00000000)  returns 0x00 (0000ms, 0646ms total)
T4F48 001:252 JLINK_WriteReg(R13 (SP), 0x20001000)  returns 0x00 (0000ms, 0646ms total)
T4F48 001:252 JLINK_WriteReg(R14, 0x20000001)  returns 0x00 (0000ms, 0646ms total)
T4F48 001:252 JLINK_WriteReg(R15 (PC), 0x20000108)  returns 0x00 (0000ms, 0646ms total)
T4F48 001:252 JLINK_WriteReg(XPSR, 0x01000000)  returns 0x00 (0000ms, 0646ms total)
T4F48 001:252 JLINK_WriteReg(MSP, 0x20001000)  returns 0x00 (0000ms, 0646ms total)
T4F48 001:252 JLINK_WriteReg(PSP, 0x20001000)  returns 0x00 (0000ms, 0646ms total)
T4F48 001:252 JLINK_WriteReg(CFBP, 0x00000000)  returns 0x00 (0000ms, 0646ms total)
T4F48 001:252 JLINK_SetBPEx(Addr = 0x20000000, Type = 0xFFFFFFF2)  returns 0x00000006 (0000ms, 0646ms total)
T4F48 001:252 JLINK_Go() (0001ms, 0647ms total)
T4F48 001:253 JLINK_IsHalted()  returns FALSE (0001ms, 0648ms total)
T4F48 001:290 JLINK_IsHalted() -- CPU_ReadMem(2 bytes @ 0x20000000)  returns TRUE (0003ms, 0650ms total)
T4F48 001:293 JLINK_ReadReg(R15 (PC))  returns 0x20000000 (0000ms, 0647ms total)
T4F48 001:293 JLINK_ClrBPEx(BPHandle = 0x00000006)  returns 0x00 (0000ms, 0647ms total)
T4F48 001:293 JLINK_ReadReg(R0)  returns 0x00000000 (0000ms, 0647ms total)
T4F48 001:293 JLINK_WriteMem(0x20000180, 0x0400 Bytes, ...) - Data: D6 1F 06 EB 86 06 05 FA 06 F1 08 43 20 63 10 E0 ... -- CPU_WriteMem(1024 bytes @ 0x20000180)  returns 0x400 (0013ms, 0660ms total)
T4F48 001:306 JLINK_WriteReg(R0, 0x08000400)  returns 0x00 (0000ms, 0660ms total)
T4F48 001:306 JLINK_WriteReg(R1, 0x00000400)  returns 0x00 (0000ms, 0660ms total)
T4F48 001:306 JLINK_WriteReg(R2, 0x20000180)  returns 0x00 (0000ms, 0660ms total)
T4F48 001:306 JLINK_WriteReg(R3, 0x00000000)  returns 0x00 (0000ms, 0660ms total)
T4F48 001:306 JLINK_WriteReg(R4, 0x00000000)  returns 0x00 (0000ms, 0660ms total)
T4F48 001:306 JLINK_WriteReg(R5, 0x00000000)  returns 0x00 (0000ms, 0660ms total)
T4F48 001:306 JLINK_WriteReg(R6, 0x00000000)  returns 0x00 (0000ms, 0660ms total)
T4F48 001:306 JLINK_WriteReg(R7, 0x00000000)  returns 0x00 (0000ms, 0660ms total)
T4F48 001:306 JLINK_WriteReg(R8, 0x00000000)  returns 0x00 (0000ms, 0660ms total)
T4F48 001:306 JLINK_WriteReg(R9, 0x2000017C)  returns 0x00 (0000ms, 0660ms total)
T4F48 001:306 JLINK_WriteReg(R10, 0x00000000)  returns 0x00 (0000ms, 0660ms total)
T4F48 001:306 JLINK_WriteReg(R11, 0x00000000)  returns 0x00 (0000ms, 0660ms total)
T4F48 001:306 JLINK_WriteReg(R12, 0x00000000)  returns 0x00 (0000ms, 0660ms total)
T4F48 001:306 JLINK_WriteReg(R13 (SP), 0x20001000)  returns 0x00 (0000ms, 0660ms total)
T4F48 001:306 JLINK_WriteReg(R14, 0x20000001)  returns 0x00 (0000ms, 0660ms total)
T4F48 001:306 JLINK_WriteReg(R15 (PC), 0x20000108)  returns 0x00 (0000ms, 0660ms total)
T4F48 001:306 JLINK_WriteReg(XPSR, 0x01000000)  returns 0x00 (0000ms, 0660ms total)
T4F48 001:306 JLINK_WriteReg(MSP, 0x20001000)  returns 0x00 (0000ms, 0660ms total)
T4F48 001:306 JLINK_WriteReg(PSP, 0x20001000)  returns 0x00 (0000ms, 0660ms total)
T4F48 001:306 JLINK_WriteReg(CFBP, 0x00000000)  returns 0x00 (0000ms, 0660ms total)
T4F48 001:306 JLINK_SetBPEx(Addr = 0x20000000, Type = 0xFFFFFFF2)  returns 0x00000007 (0000ms, 0660ms total)
T4F48 001:306 JLINK_Go() (0002ms, 0662ms total)
T4F48 001:308 JLINK_IsHalted()  returns FALSE (0000ms, 0662ms total)
T4F48 001:310 JLINK_IsHalted()  returns FALSE (0000ms, 0662ms total)
T4F48 001:311 JLINK_IsHalted()  returns FALSE (0001ms, 0663ms total)
T4F48 001:314 JLINK_IsHalted() -- CPU_ReadMem(2 bytes @ 0x20000000)  returns TRUE (0003ms, 0665ms total)
T4F48 001:317 JLINK_ReadReg(R15 (PC))  returns 0x20000000 (0000ms, 0662ms total)
T4F48 001:317 JLINK_ClrBPEx(BPHandle = 0x00000007)  returns 0x00 (0000ms, 0662ms total)
T4F48 001:317 JLINK_ReadReg(R0)  returns 0x00000000 (0000ms, 0662ms total)
T4F48 001:317 JLINK_WriteMem(0x20000180, 0x0400 Bytes, ...) - Data: 00 F1 20 06 46 F8 27 50 CE 10 00 F1 20 05 55 F8 ... -- CPU_WriteMem(1024 bytes @ 0x20000180)  returns 0x400 (0012ms, 0674ms total)
T4F48 001:329 JLINK_WriteReg(R0, 0x08000800)  returns 0x00 (0000ms, 0674ms total)
T4F48 001:329 JLINK_WriteReg(R1, 0x00000400)  returns 0x00 (0000ms, 0674ms total)
T4F48 001:329 JLINK_WriteReg(R2, 0x20000180)  returns 0x00 (0000ms, 0674ms total)
T4F48 001:329 JLINK_WriteReg(R3, 0x00000000)  returns 0x00 (0000ms, 0674ms total)
T4F48 001:329 JLINK_WriteReg(R4, 0x00000000)  returns 0x00 (0000ms, 0674ms total)
T4F48 001:329 JLINK_WriteReg(R5, 0x00000000)  returns 0x00 (0000ms, 0674ms total)
T4F48 001:329 JLINK_WriteReg(R6, 0x00000000)  returns 0x00 (0000ms, 0674ms total)
T4F48 001:329 JLINK_WriteReg(R7, 0x00000000)  returns 0x00 (0000ms, 0674ms total)
T4F48 001:329 JLINK_WriteReg(R8, 0x00000000)  returns 0x00 (0000ms, 0674ms total)
T4F48 001:329 JLINK_WriteReg(R9, 0x2000017C)  returns 0x00 (0000ms, 0674ms total)
T4F48 001:329 JLINK_WriteReg(R10, 0x00000000)  returns 0x00 (0000ms, 0674ms total)
T4F48 001:329 JLINK_WriteReg(R11, 0x00000000)  returns 0x00 (0000ms, 0674ms total)
T4F48 001:329 JLINK_WriteReg(R12, 0x00000000)  returns 0x00 (0000ms, 0674ms total)
T4F48 001:329 JLINK_WriteReg(R13 (SP), 0x20001000)  returns 0x00 (0000ms, 0674ms total)
T4F48 001:329 JLINK_WriteReg(R14, 0x20000001)  returns 0x00 (0000ms, 0674ms total)
T4F48 001:329 JLINK_WriteReg(R15 (PC), 0x20000108)  returns 0x00 (0000ms, 0674ms total)
T4F48 001:329 JLINK_WriteReg(XPSR, 0x01000000)  returns 0x00 (0000ms, 0674ms total)
T4F48 001:329 JLINK_WriteReg(MSP, 0x20001000)  returns 0x00 (0000ms, 0674ms total)
T4F48 001:329 JLINK_WriteReg(PSP, 0x20001000)  returns 0x00 (0000ms, 0674ms total)
T4F48 001:329 JLINK_WriteReg(CFBP, 0x00000000)  returns 0x00 (0000ms, 0674ms total)
T4F48 001:329 JLINK_SetBPEx(Addr = 0x20000000, Type = 0xFFFFFFF2)  returns 0x00000008 (0000ms, 0674ms total)
T4F48 001:329 JLINK_Go() (0002ms, 0676ms total)
T4F48 001:331 JLINK_IsHalted()  returns FALSE (0000ms, 0676ms total)
T4F48 001:334 JLINK_IsHalted()  returns FALSE (0000ms, 0676ms total)
T4F48 001:336 JLINK_IsHalted() -- CPU_ReadMem(2 bytes @ 0x20000000)  returns TRUE (0003ms, 0679ms total)
T4F48 001:339 JLINK_ReadReg(R15 (PC))  returns 0x20000000 (0000ms, 0676ms total)
T4F48 001:339 JLINK_ClrBPEx(BPHandle = 0x00000008)  returns 0x00 (0000ms, 0676ms total)
T4F48 001:339 JLINK_ReadReg(R0)  returns 0x00000000 (0000ms, 0676ms total)
T4F48 001:339 JLINK_WriteMem(0x20000180, 0x0400 Bytes, ...) - Data: 80 2D F8 DB 60 1C C4 B2 08 2C E7 DB 70 BD 70 B5 ... -- CPU_WriteMem(1024 bytes @ 0x20000180)  returns 0x400 (0013ms, 0689ms total)
T4F48 001:352 JLINK_WriteReg(R0, 0x08000C00)  returns 0x00 (0000ms, 0689ms total)
T4F48 001:352 JLINK_WriteReg(R1, 0x00000400)  returns 0x00 (0000ms, 0689ms total)
T4F48 001:352 JLINK_WriteReg(R2, 0x20000180)  returns 0x00 (0000ms, 0689ms total)
T4F48 001:352 JLINK_WriteReg(R3, 0x00000000)  returns 0x00 (0000ms, 0689ms total)
T4F48 001:352 JLINK_WriteReg(R4, 0x00000000)  returns 0x00 (0000ms, 0689ms total)
T4F48 001:352 JLINK_WriteReg(R5, 0x00000000)  returns 0x00 (0000ms, 0689ms total)
T4F48 001:352 JLINK_WriteReg(R6, 0x00000000)  returns 0x00 (0000ms, 0689ms total)
T4F48 001:352 JLINK_WriteReg(R7, 0x00000000)  returns 0x00 (0000ms, 0689ms total)
T4F48 001:352 JLINK_WriteReg(R8, 0x00000000)  returns 0x00 (0000ms, 0689ms total)
T4F48 001:352 JLINK_WriteReg(R9, 0x2000017C)  returns 0x00 (0000ms, 0689ms total)
T4F48 001:352 JLINK_WriteReg(R10, 0x00000000)  returns 0x00 (0000ms, 0689ms total)
T4F48 001:352 JLINK_WriteReg(R11, 0x00000000)  returns 0x00 (0000ms, 0689ms total)
T4F48 001:352 JLINK_WriteReg(R12, 0x00000000)  returns 0x00 (0000ms, 0689ms total)
T4F48 001:352 JLINK_WriteReg(R13 (SP), 0x20001000)  returns 0x00 (0000ms, 0689ms total)
T4F48 001:352 JLINK_WriteReg(R14, 0x20000001)  returns 0x00 (0000ms, 0689ms total)
T4F48 001:352 JLINK_WriteReg(R15 (PC), 0x20000108)  returns 0x00 (0000ms, 0689ms total)
T4F48 001:352 JLINK_WriteReg(XPSR, 0x01000000)  returns 0x00 (0000ms, 0689ms total)
T4F48 001:352 JLINK_WriteReg(MSP, 0x20001000)  returns 0x00 (0000ms, 0689ms total)
T4F48 001:352 JLINK_WriteReg(PSP, 0x20001000)  returns 0x00 (0000ms, 0689ms total)
T4F48 001:352 JLINK_WriteReg(CFBP, 0x00000000)  returns 0x00 (0000ms, 0689ms total)
T4F48 001:352 JLINK_SetBPEx(Addr = 0x20000000, Type = 0xFFFFFFF2)  returns 0x00000009 (0000ms, 0689ms total)
T4F48 001:352 JLINK_Go() (0001ms, 0690ms total)
T4F48 001:353 JLINK_IsHalted()  returns FALSE (0000ms, 0690ms total)
T4F48 001:409 JLINK_IsHalted() -- CPU_ReadMem(2 bytes @ 0x20000000)  returns TRUE (0003ms, 0693ms total)
T4F48 001:412 JLINK_ReadReg(R15 (PC))  returns 0x20000000 (0000ms, 0690ms total)
T4F48 001:412 JLINK_ClrBPEx(BPHandle = 0x00000009)  returns 0x00 (0000ms, 0690ms total)
T4F48 001:412 JLINK_ReadReg(R0)  returns 0x00000000 (0000ms, 0690ms total)
T4F48 001:412 JLINK_WriteMem(0x20000180, 0x0400 Bytes, ...) - Data: 00 2C F7 DA 28 46 70 BD 1C B5 01 21 02 20 FF F7 ... -- CPU_WriteMem(1024 bytes @ 0x20000180)  returns 0x400 (0012ms, 0702ms total)
T4F48 001:424 JLINK_WriteReg(R0, 0x08001000)  returns 0x00 (0000ms, 0702ms total)
T4F48 001:424 JLINK_WriteReg(R1, 0x00000400)  returns 0x00 (0000ms, 0702ms total)
T4F48 001:424 JLINK_WriteReg(R2, 0x20000180)  returns 0x00 (0000ms, 0702ms total)
T4F48 001:424 JLINK_WriteReg(R3, 0x00000000)  returns 0x00 (0000ms, 0702ms total)
T4F48 001:424 JLINK_WriteReg(R4, 0x00000000)  returns 0x00 (0000ms, 0702ms total)
T4F48 001:424 JLINK_WriteReg(R5, 0x00000000)  returns 0x00 (0000ms, 0702ms total)
T4F48 001:424 JLINK_WriteReg(R6, 0x00000000)  returns 0x00 (0000ms, 0702ms total)
T4F48 001:424 JLINK_WriteReg(R7, 0x00000000)  returns 0x00 (0000ms, 0702ms total)
T4F48 001:424 JLINK_WriteReg(R8, 0x00000000)  returns 0x00 (0000ms, 0702ms total)
T4F48 001:424 JLINK_WriteReg(R9, 0x2000017C)  returns 0x00 (0000ms, 0702ms total)
T4F48 001:424 JLINK_WriteReg(R10, 0x00000000)  returns 0x00 (0000ms, 0702ms total)
T4F48 001:424 JLINK_WriteReg(R11, 0x00000000)  returns 0x00 (0000ms, 0702ms total)
T4F48 001:424 JLINK_WriteReg(R12, 0x00000000)  returns 0x00 (0000ms, 0702ms total)
T4F48 001:424 JLINK_WriteReg(R13 (SP), 0x20001000)  returns 0x00 (0000ms, 0702ms total)
T4F48 001:424 JLINK_WriteReg(R14, 0x20000001)  returns 0x00 (0000ms, 0702ms total)
T4F48 001:424 JLINK_WriteReg(R15 (PC), 0x20000108)  returns 0x00 (0000ms, 0702ms total)
T4F48 001:424 JLINK_WriteReg(XPSR, 0x01000000)  returns 0x00 (0000ms, 0702ms total)
T4F48 001:424 JLINK_WriteReg(MSP, 0x20001000)  returns 0x00 (0000ms, 0702ms total)
T4F48 001:424 JLINK_WriteReg(PSP, 0x20001000)  returns 0x00 (0000ms, 0702ms total)
T4F48 001:424 JLINK_WriteReg(CFBP, 0x00000000)  returns 0x00 (0000ms, 0702ms total)
T4F48 001:424 JLINK_SetBPEx(Addr = 0x20000000, Type = 0xFFFFFFF2)  returns 0x0000000A (0000ms, 0702ms total)
T4F48 001:424 JLINK_Go() (0002ms, 0704ms total)
T4F48 001:426 JLINK_IsHalted()  returns FALSE (0000ms, 0704ms total)
T4F48 001:430 JLINK_IsHalted() -- CPU_ReadMem(2 bytes @ 0x20000000)  returns TRUE (0004ms, 0708ms total)
T4F48 001:434 JLINK_ReadReg(R15 (PC))  returns 0x20000000 (0000ms, 0704ms total)
T4F48 001:434 JLINK_ClrBPEx(BPHandle = 0x0000000A)  returns 0x00 (0000ms, 0704ms total)
T4F48 001:434 JLINK_ReadReg(R0)  returns 0x00000000 (0000ms, 0704ms total)
T4F48 001:434 JLINK_WriteMem(0x20000180, 0x0400 Bytes, ...) - Data: 00 24 0C E0 10 49 01 EB 44 12 21 01 10 31 C8 B2 ... -- CPU_WriteMem(1024 bytes @ 0x20000180)  returns 0x400 (0012ms, 0716ms total)
T4F48 001:446 JLINK_WriteReg(R0, 0x08001400)  returns 0x00 (0000ms, 0716ms total)
T4F48 001:446 JLINK_WriteReg(R1, 0x00000400)  returns 0x00 (0000ms, 0716ms total)
T4F48 001:446 JLINK_WriteReg(R2, 0x20000180)  returns 0x00 (0000ms, 0716ms total)
T4F48 001:446 JLINK_WriteReg(R3, 0x00000000)  returns 0x00 (0000ms, 0716ms total)
T4F48 001:446 JLINK_WriteReg(R4, 0x00000000)  returns 0x00 (0000ms, 0716ms total)
T4F48 001:446 JLINK_WriteReg(R5, 0x00000000)  returns 0x00 (0000ms, 0716ms total)
T4F48 001:446 JLINK_WriteReg(R6, 0x00000000)  returns 0x00 (0001ms, 0717ms total)
T4F48 001:447 JLINK_WriteReg(R7, 0x00000000)  returns 0x00 (0000ms, 0717ms total)
T4F48 001:447 JLINK_WriteReg(R8, 0x00000000)  returns 0x00 (0000ms, 0717ms total)
T4F48 001:447 JLINK_WriteReg(R9, 0x2000017C)  returns 0x00 (0000ms, 0717ms total)
T4F48 001:447 JLINK_WriteReg(R10, 0x00000000)  returns 0x00 (0000ms, 0717ms total)
T4F48 001:447 JLINK_WriteReg(R11, 0x00000000)  returns 0x00 (0000ms, 0717ms total)
T4F48 001:447 JLINK_WriteReg(R12, 0x00000000)  returns 0x00 (0000ms, 0717ms total)
T4F48 001:447 JLINK_WriteReg(R13 (SP), 0x20001000)  returns 0x00 (0000ms, 0717ms total)
T4F48 001:447 JLINK_WriteReg(R14, 0x20000001)  returns 0x00 (0000ms, 0717ms total)
T4F48 001:447 JLINK_WriteReg(R15 (PC), 0x20000108)  returns 0x00 (0000ms, 0717ms total)
T4F48 001:447 JLINK_WriteReg(XPSR, 0x01000000)  returns 0x00 (0000ms, 0717ms total)
T4F48 001:447 JLINK_WriteReg(MSP, 0x20001000)  returns 0x00 (0000ms, 0717ms total)
T4F48 001:447 JLINK_WriteReg(PSP, 0x20001000)  returns 0x00 (0000ms, 0717ms total)
T4F48 001:447 JLINK_WriteReg(CFBP, 0x00000000)  returns 0x00 (0000ms, 0717ms total)
T4F48 001:447 JLINK_SetBPEx(Addr = 0x20000000, Type = 0xFFFFFFF2)  returns 0x0000000B (0000ms, 0717ms total)
T4F48 001:447 JLINK_Go() (0001ms, 0718ms total)
T4F48 001:448 JLINK_IsHalted()  returns FALSE (0001ms, 0719ms total)
T4F48 001:504 JLINK_IsHalted() -- CPU_ReadMem(2 bytes @ 0x20000000)  returns TRUE (0003ms, 0721ms total)
T4F48 001:507 JLINK_ReadReg(R15 (PC))  returns 0x20000000 (0000ms, 0718ms total)
T4F48 001:507 JLINK_ClrBPEx(BPHandle = 0x0000000B)  returns 0x00 (0000ms, 0718ms total)
T4F48 001:507 JLINK_ReadReg(R0)  returns 0x00000000 (0000ms, 0718ms total)
T4F48 001:507 JLINK_WriteMem(0x20000180, 0x0400 Bytes, ...) - Data: 08 04 FF F7 4F FB 00 21 4F F4 80 30 FF F7 4A FB ... -- CPU_WriteMem(1024 bytes @ 0x20000180)  returns 0x400 (0013ms, 0731ms total)
T4F48 001:521 JLINK_WriteReg(R0, 0x08001800)  returns 0x00 (0000ms, 0731ms total)
T4F48 001:521 JLINK_WriteReg(R1, 0x00000400)  returns 0x00 (0000ms, 0731ms total)
T4F48 001:521 JLINK_WriteReg(R2, 0x20000180)  returns 0x00 (0000ms, 0731ms total)
T4F48 001:521 JLINK_WriteReg(R3, 0x00000000)  returns 0x00 (0000ms, 0731ms total)
T4F48 001:521 JLINK_WriteReg(R4, 0x00000000)  returns 0x00 (0000ms, 0731ms total)
T4F48 001:521 JLINK_WriteReg(R5, 0x00000000)  returns 0x00 (0000ms, 0731ms total)
T4F48 001:521 JLINK_WriteReg(R6, 0x00000000)  returns 0x00 (0000ms, 0731ms total)
T4F48 001:521 JLINK_WriteReg(R7, 0x00000000)  returns 0x00 (0000ms, 0731ms total)
T4F48 001:521 JLINK_WriteReg(R8, 0x00000000)  returns 0x00 (0000ms, 0731ms total)
T4F48 001:521 JLINK_WriteReg(R9, 0x2000017C)  returns 0x00 (0000ms, 0731ms total)
T4F48 001:521 JLINK_WriteReg(R10, 0x00000000)  returns 0x00 (0000ms, 0731ms total)
T4F48 001:521 JLINK_WriteReg(R11, 0x00000000)  returns 0x00 (0000ms, 0731ms total)
T4F48 001:521 JLINK_WriteReg(R12, 0x00000000)  returns 0x00 (0000ms, 0731ms total)
T4F48 001:521 JLINK_WriteReg(R13 (SP), 0x20001000)  returns 0x00 (0000ms, 0731ms total)
T4F48 001:521 JLINK_WriteReg(R14, 0x20000001)  returns 0x00 (0000ms, 0731ms total)
T4F48 001:521 JLINK_WriteReg(R15 (PC), 0x20000108)  returns 0x00 (0000ms, 0731ms total)
T4F48 001:521 JLINK_WriteReg(XPSR, 0x01000000)  returns 0x00 (0000ms, 0731ms total)
T4F48 001:521 JLINK_WriteReg(MSP, 0x20001000)  returns 0x00 (0000ms, 0731ms total)
T4F48 001:521 JLINK_WriteReg(PSP, 0x20001000)  returns 0x00 (0000ms, 0731ms total)
T4F48 001:521 JLINK_WriteReg(CFBP, 0x00000000)  returns 0x00 (0000ms, 0731ms total)
T4F48 001:521 JLINK_SetBPEx(Addr = 0x20000000, Type = 0xFFFFFFF2)  returns 0x0000000C (0000ms, 0731ms total)
T4F48 001:521 JLINK_Go() (0001ms, 0732ms total)
T4F48 001:522 JLINK_IsHalted()  returns FALSE (0000ms, 0732ms total)
T4F48 001:524 JLINK_IsHalted()  returns FALSE (0000ms, 0732ms total)
T4F48 001:526 JLINK_IsHalted()  returns FALSE (0000ms, 0732ms total)
T4F48 001:528 JLINK_IsHalted() -- CPU_ReadMem(2 bytes @ 0x20000000)  returns TRUE (0003ms, 0735ms total)
T4F48 001:531 JLINK_ReadReg(R15 (PC))  returns 0x20000000 (0000ms, 0732ms total)
T4F48 001:531 JLINK_ClrBPEx(BPHandle = 0x0000000C)  returns 0x00 (0000ms, 0732ms total)
T4F48 001:531 JLINK_ReadReg(R0)  returns 0x00000000 (0000ms, 0732ms total)
T4F48 001:532 JLINK_WriteMem(0x20000180, 0x0400 Bytes, ...) - Data: 04 E0 02 2C 01 D1 10 30 00 E0 14 30 1A B1 07 68 ... -- CPU_WriteMem(1024 bytes @ 0x20000180)  returns 0x400 (0012ms, 0744ms total)
T4F48 001:544 JLINK_WriteReg(R0, 0x08001C00)  returns 0x00 (0000ms, 0744ms total)
T4F48 001:544 JLINK_WriteReg(R1, 0x00000400)  returns 0x00 (0000ms, 0744ms total)
T4F48 001:544 JLINK_WriteReg(R2, 0x20000180)  returns 0x00 (0000ms, 0744ms total)
T4F48 001:544 JLINK_WriteReg(R3, 0x00000000)  returns 0x00 (0000ms, 0744ms total)
T4F48 001:544 JLINK_WriteReg(R4, 0x00000000)  returns 0x00 (0000ms, 0744ms total)
T4F48 001:544 JLINK_WriteReg(R5, 0x00000000)  returns 0x00 (0000ms, 0744ms total)
T4F48 001:544 JLINK_WriteReg(R6, 0x00000000)  returns 0x00 (0000ms, 0744ms total)
T4F48 001:544 JLINK_WriteReg(R7, 0x00000000)  returns 0x00 (0000ms, 0744ms total)
T4F48 001:544 JLINK_WriteReg(R8, 0x00000000)  returns 0x00 (0000ms, 0744ms total)
T4F48 001:544 JLINK_WriteReg(R9, 0x2000017C)  returns 0x00 (0000ms, 0744ms total)
T4F48 001:544 JLINK_WriteReg(R10, 0x00000000)  returns 0x00 (0000ms, 0744ms total)
T4F48 001:544 JLINK_WriteReg(R11, 0x00000000)  returns 0x00 (0000ms, 0744ms total)
T4F48 001:544 JLINK_WriteReg(R12, 0x00000000)  returns 0x00 (0000ms, 0744ms total)
T4F48 001:544 JLINK_WriteReg(R13 (SP), 0x20001000)  returns 0x00 (0000ms, 0744ms total)
T4F48 001:544 JLINK_WriteReg(R14, 0x20000001)  returns 0x00 (0000ms, 0744ms total)
T4F48 001:544 JLINK_WriteReg(R15 (PC), 0x20000108)  returns 0x00 (0000ms, 0744ms total)
T4F48 001:544 JLINK_WriteReg(XPSR, 0x01000000)  returns 0x00 (0000ms, 0744ms total)
T4F48 001:544 JLINK_WriteReg(MSP, 0x20001000)  returns 0x00 (0000ms, 0744ms total)
T4F48 001:544 JLINK_WriteReg(PSP, 0x20001000)  returns 0x00 (0000ms, 0744ms total)
T4F48 001:544 JLINK_WriteReg(CFBP, 0x00000000)  returns 0x00 (0000ms, 0744ms total)
T4F48 001:544 JLINK_SetBPEx(Addr = 0x20000000, Type = 0xFFFFFFF2)  returns 0x0000000D (0000ms, 0744ms total)
T4F48 001:544 JLINK_Go() (0001ms, 0745ms total)
T4F48 001:545 JLINK_IsHalted()  returns FALSE (0001ms, 0746ms total)
T4F48 001:548 JLINK_IsHalted()  returns FALSE (0000ms, 0745ms total)
T4F48 001:549 JLINK_IsHalted()  returns FALSE (0000ms, 0745ms total)
T4F48 001:551 JLINK_IsHalted() -- CPU_ReadMem(2 bytes @ 0x20000000)  returns TRUE (0003ms, 0748ms total)
T4F48 001:554 JLINK_ReadReg(R15 (PC))  returns 0x20000000 (0000ms, 0745ms total)
T4F48 001:554 JLINK_ClrBPEx(BPHandle = 0x0000000D)  returns 0x00 (0000ms, 0745ms total)
T4F48 001:554 JLINK_ReadReg(R0)  returns 0x00000000 (0000ms, 0745ms total)
T4F48 001:555 JLINK_WriteMem(0x20000180, 0x0400 Bytes, ...) - Data: 61 07 4F F0 00 04 01 D4 0A E0 64 1C 44 45 0D DA ... -- CPU_WriteMem(1024 bytes @ 0x20000180)  returns 0x400 (0012ms, 0757ms total)
T4F48 001:567 JLINK_WriteReg(R0, 0x08002000)  returns 0x00 (0000ms, 0757ms total)
T4F48 001:567 JLINK_WriteReg(R1, 0x00000400)  returns 0x00 (0000ms, 0757ms total)
T4F48 001:567 JLINK_WriteReg(R2, 0x20000180)  returns 0x00 (0000ms, 0757ms total)
T4F48 001:567 JLINK_WriteReg(R3, 0x00000000)  returns 0x00 (0000ms, 0757ms total)
T4F48 001:567 JLINK_WriteReg(R4, 0x00000000)  returns 0x00 (0000ms, 0757ms total)
T4F48 001:567 JLINK_WriteReg(R5, 0x00000000)  returns 0x00 (0000ms, 0757ms total)
T4F48 001:567 JLINK_WriteReg(R6, 0x00000000)  returns 0x00 (0000ms, 0757ms total)
T4F48 001:567 JLINK_WriteReg(R7, 0x00000000)  returns 0x00 (0000ms, 0757ms total)
T4F48 001:567 JLINK_WriteReg(R8, 0x00000000)  returns 0x00 (0000ms, 0757ms total)
T4F48 001:567 JLINK_WriteReg(R9, 0x2000017C)  returns 0x00 (0000ms, 0757ms total)
T4F48 001:567 JLINK_WriteReg(R10, 0x00000000)  returns 0x00 (0000ms, 0757ms total)
T4F48 001:567 JLINK_WriteReg(R11, 0x00000000)  returns 0x00 (0000ms, 0757ms total)
T4F48 001:567 JLINK_WriteReg(R12, 0x00000000)  returns 0x00 (0000ms, 0757ms total)
T4F48 001:567 JLINK_WriteReg(R13 (SP), 0x20001000)  returns 0x00 (0000ms, 0757ms total)
T4F48 001:567 JLINK_WriteReg(R14, 0x20000001)  returns 0x00 (0000ms, 0757ms total)
T4F48 001:567 JLINK_WriteReg(R15 (PC), 0x20000108)  returns 0x00 (0000ms, 0757ms total)
T4F48 001:567 JLINK_WriteReg(XPSR, 0x01000000)  returns 0x00 (0000ms, 0757ms total)
T4F48 001:567 JLINK_WriteReg(MSP, 0x20001000)  returns 0x00 (0000ms, 0757ms total)
T4F48 001:567 JLINK_WriteReg(PSP, 0x20001000)  returns 0x00 (0000ms, 0757ms total)
T4F48 001:567 JLINK_WriteReg(CFBP, 0x00000000)  returns 0x00 (0000ms, 0757ms total)
T4F48 001:567 JLINK_SetBPEx(Addr = 0x20000000, Type = 0xFFFFFFF2)  returns 0x0000000E (0000ms, 0757ms total)
T4F48 001:567 JLINK_Go() (0001ms, 0758ms total)
T4F48 001:568 JLINK_IsHalted()  returns FALSE (0001ms, 0759ms total)
T4F48 001:619 JLINK_IsHalted() -- CPU_ReadMem(2 bytes @ 0x20000000)  returns TRUE (0004ms, 0762ms total)
